
**** 03/17/22 10:26:30 *********** Evaluation PSpice (Nov 1999) **************

 CIRCUIT T PODIT


 ****     CIRCUIT DESCRIPTION


******************************************************************************



* acesta este ;primul circuit simulat
VPOLARIZARE 1 0 12
* ce a fost mai sus este sursa de tensiune intre nodurile 1 si 0 si are 12 V
R1 1 2 10 
* rezistenmta 1 se afla intre nodurile 1 si 2 si arte 10 ohmi
* asemanator e si la restul =)
R2 2 0 10
R3 2 3 5
R4 1 3 5
* .OP este pentru aflarea valorii potentialelor
* .END este pentru final de fisier
.OP
.END

**** 03/17/22 10:26:30 *********** Evaluation PSpice (Nov 1999) **************

 CIRCUIT T PODIT


 ****     SMALL SIGNAL BIAS SOLUTION       TEMPERATURE =   27.000 DEG C


******************************************************************************



 NODE   VOLTAGE     NODE   VOLTAGE     NODE   VOLTAGE     NODE   VOLTAGE


(    1)   12.0000  (    2)    8.0000  (    3)   10.0000  




    VOLTAGE SOURCE CURRENTS
    NAME         CURRENT

    VPOLARIZARE  -8.000E-01

    TOTAL POWER DISSIPATION   9.60E+00  WATTS


**** 03/17/22 10:26:30 *********** Evaluation PSpice (Nov 1999) **************

 CIRCUIT T PODIT


 ****     OPERATING POINT INFORMATION      TEMPERATURE =   27.000 DEG C


******************************************************************************





          JOB CONCLUDED

          TOTAL JOB TIME             .02
