
**** 03/17/22 11:05:43 *********** Evaluation PSpice (Nov 1999) **************

 TEMA 2


 ****     CIRCUIT DESCRIPTION


******************************************************************************



V1 5 1 50
V2 3 2 30
V3 5 4 90
I1 1 0 2
R1 0 4 25
R2 5 2 12
R3 1 2 10
R4 4 3 10
R5 0 5 10
.op
.dc V1 50 50 1
.print dc I(R1) I(R2) I(R3) I(R4) I(R5) I(V1) I(V2) I(V3) V(I1)
.end

**** 03/17/22 11:05:43 *********** Evaluation PSpice (Nov 1999) **************

 TEMA 2


 ****     DC TRANSFER CURVES               TEMPERATURE =   27.000 DEG C


******************************************************************************



  V1          I(R1)       I(R2)       I(R3)       I(R4)       I(R5)       

   5.000E+01   3.143E+00   5.000E+00   1.000E+00  -6.000E+00  -1.143E+00



**** 03/17/22 11:05:43 *********** Evaluation PSpice (Nov 1999) **************

 TEMA 2


 ****     DC TRANSFER CURVES               TEMPERATURE =   27.000 DEG C


******************************************************************************



  V1          I(V1)       I(V2)       I(V3)       V(I1)       

   5.000E+01   3.000E+00  -6.000E+00  -9.143E+00  -3.857E+01



**** 03/17/22 11:05:43 *********** Evaluation PSpice (Nov 1999) **************

 TEMA 2


 ****     SMALL SIGNAL BIAS SOLUTION       TEMPERATURE =   27.000 DEG C


******************************************************************************



 NODE   VOLTAGE     NODE   VOLTAGE     NODE   VOLTAGE     NODE   VOLTAGE


(    1)  -38.5710  (    2)  -48.5710  (    3)  -18.5710  (    4)  -78.5710      

(    5)   11.4290  




    VOLTAGE SOURCE CURRENTS
    NAME         CURRENT

    V1           3.000E+00
    V2          -6.000E+00
    V3          -9.143E+00

    TOTAL POWER DISSIPATION   8.53E+02  WATTS


**** 03/17/22 11:05:43 *********** Evaluation PSpice (Nov 1999) **************

 TEMA 2


 ****     OPERATING POINT INFORMATION      TEMPERATURE =   27.000 DEG C


******************************************************************************





          JOB CONCLUDED

          TOTAL JOB TIME            0.00
