
**** 03/31/22 22:04:24 *********** Evaluation PSpice (Nov 1999) **************

 EXERCITIUL_C


 ****     CIRCUIT DESCRIPTION


******************************************************************************



*
R1 0 1 2
R2 2 3 2 
R3 1 3 2
R4 4 3 2
* 
V1 4 0 12
V2 1 2 6
*
G5 4 3 1 0 1
*
.dc V1 12 12 1
.print dc I(R1) I(R2) I(R3) I(R4) V(G5)
.op
*
.end

**** 03/31/22 22:04:24 *********** Evaluation PSpice (Nov 1999) **************

 EXERCITIUL_C


 ****     DC TRANSFER CURVES               TEMPERATURE =   27.000 DEG C


******************************************************************************



  V1          I(R1)       I(R2)       I(R3)       I(R4)       V(G5)       

   1.200E+01  -1.500E+01  -9.000E+00  -6.000E+00  -1.500E+01  -3.000E+01



**** 03/31/22 22:04:24 *********** Evaluation PSpice (Nov 1999) **************

 EXERCITIUL_C


 ****     SMALL SIGNAL BIAS SOLUTION       TEMPERATURE =   27.000 DEG C


******************************************************************************



 NODE   VOLTAGE     NODE   VOLTAGE     NODE   VOLTAGE     NODE   VOLTAGE


(    1)   30.0000  (    2)   24.0000  (    3)   42.0000  (    4)   12.0000  




    VOLTAGE SOURCE CURRENTS
    NAME         CURRENT

    V1          -1.500E+01
    V2          -9.000E+00

    TOTAL POWER DISSIPATION   2.34E+02  WATTS


**** 03/31/22 22:04:24 *********** Evaluation PSpice (Nov 1999) **************

 EXERCITIUL_C


 ****     OPERATING POINT INFORMATION      TEMPERATURE =   27.000 DEG C


******************************************************************************






**** VOLTAGE-CONTROLLED CURRENT SOURCES


NAME         G5        
I-SOURCE     3.000E+01

          JOB CONCLUDED

          TOTAL JOB TIME             .02
