
**** 03/31/22 22:15:28 *********** Evaluation PSpice (Nov 1999) **************

 EXERCITIUL_A


 ****     CIRCUIT DESCRIPTION


******************************************************************************



*
R1 1 0 2
R2 0 4 1
R3 0 5 4
R5 2 3 2
*
V1 1 2 12
V3 3 5 4
I4 0 2 4
H2 4 3 V1 -2
*
.dc V1 12 12 1
.print dc I(R1) I(R2) I(R3) I(R5) V(I4)
.op
*
.end

**** 03/31/22 22:15:28 *********** Evaluation PSpice (Nov 1999) **************

 EXERCITIUL_A


 ****     DC TRANSFER CURVES               TEMPERATURE =   27.000 DEG C


******************************************************************************



  V1          I(R1)       I(R2)       I(R3)       I(R5)       V(I4)       

   1.200E+01   3.750E+00  -2.500E+00   2.250E+00   2.500E-01   4.500E+00



**** 03/31/22 22:15:28 *********** Evaluation PSpice (Nov 1999) **************

 EXERCITIUL_A


 ****     SMALL SIGNAL BIAS SOLUTION       TEMPERATURE =   27.000 DEG C


******************************************************************************



 NODE   VOLTAGE     NODE   VOLTAGE     NODE   VOLTAGE     NODE   VOLTAGE


(    1)    7.5000  (    2)   -4.5000  (    3)   -5.0000  (    4)    2.5000      

(    5)   -9.0000  




    VOLTAGE SOURCE CURRENTS
    NAME         CURRENT

    V1          -3.750E+00
    V3          -2.250E+00

    TOTAL POWER DISSIPATION   5.40E+01  WATTS


**** 03/31/22 22:15:28 *********** Evaluation PSpice (Nov 1999) **************

 EXERCITIUL_A


 ****     OPERATING POINT INFORMATION      TEMPERATURE =   27.000 DEG C


******************************************************************************






**** CURRENT-CONTROLLED VOLTAGE SOURCES


NAME         H2        
V-SOURCE     7.500E+00
I-SOURCE    -2.500E+00

          JOB CONCLUDED

          TOTAL JOB TIME            0.00
