
**** 03/31/22 22:11:12 *********** Evaluation PSpice (Nov 1999) **************

 EXERCITIUL_B


 ****     CIRCUIT DESCRIPTION


******************************************************************************



*
R1 0 1 5
R3 1 2 4
R4 3 5 3
R5 6 4 2
*
V1 6 0 78
I2 6 1 6 
E3 3 2 1 6 0.5
F5 4 3 VCOM 0.5
VCOM 5 6 0
*
.dc V1 78 78 1
.print dc I(R1) I(R3) I(R4) I(R5)
.op
*
.end

**** 03/31/22 22:11:12 *********** Evaluation PSpice (Nov 1999) **************

 EXERCITIUL_B


 ****     DC TRANSFER CURVES               TEMPERATURE =   27.000 DEG C


******************************************************************************



  V1          I(R1)       I(R3)       I(R4)       I(R5)       

   7.800E+01  -1.011E+01  -4.114E+00  -8.229E+00  -4.114E+00



**** 03/31/22 22:11:12 *********** Evaluation PSpice (Nov 1999) **************

 EXERCITIUL_B


 ****     SMALL SIGNAL BIAS SOLUTION       TEMPERATURE =   27.000 DEG C


******************************************************************************



 NODE   VOLTAGE     NODE   VOLTAGE     NODE   VOLTAGE     NODE   VOLTAGE


(    1)   50.5710  (    2)   67.0290  (    3)   53.3140  (    4)   86.2290      

(    5)   78.0000  (    6)   78.0000  




    VOLTAGE SOURCE CURRENTS
    NAME         CURRENT

    V1          -1.011E+01
    VCOM        -8.229E+00

    TOTAL POWER DISSIPATION   7.89E+02  WATTS


**** 03/31/22 22:11:12 *********** Evaluation PSpice (Nov 1999) **************

 EXERCITIUL_B


 ****     OPERATING POINT INFORMATION      TEMPERATURE =   27.000 DEG C


******************************************************************************






**** VOLTAGE-CONTROLLED VOLTAGE SOURCES


NAME         E3        
V-SOURCE    -1.371E+01
I-SOURCE     4.114E+00


**** CURRENT-CONTROLLED CURRENT SOURCES


NAME         F5        
I-SOURCE    -4.114E+00

          JOB CONCLUDED

          TOTAL JOB TIME            0.00
